 ****** HSPICE -- A-2008.03 32-BIT (Feb 26 2008) winnt ******                   
  Copyright (C) 2008 Synopsys, Inc. All Rights Reserved.                        
  Unpublished-rights reserved under US copyright laws.
  This program is protected by law and is subject to the 
  terms and conditions of the license agreement found in:
    C:\synopsys\Hspice_A-2008.03\license.warn
  Use of this program is your acceptance to be bound by this 
  license agreement. HSPICE is the trademark of Synopsys, Inc.
  Input File: \\mac\home\desktop\malikeh\ut-courses\digital_elec\ca3\zahremar.sp
 Init: read install configuration file: C:\synopsys\Hspice_A-2008.03\meta.cfg
 Init: hspice initialization file: C:\synopsys\Hspice_A-2008.03\hspice.ini





 ********* params*******
 .param      lmin=45n
 +vdd=1v

 .global  vdd
 ****** sources ******
 vdd      1  0    1
 vinx  2  0   1
 vina  3  0  1
 ***************************** inverter ****************************

 .subckt myinverter in gnd  node out
 mp1  out          in    node    node    pmos       l='lmin'  w='2*lmin'
 mn2 out         in      gnd     gnd     nmos        l='lmin'  w='1*lmin'
 .ends myinverter

 **************************** and gate ****************************

 .subckt myand ina inb gnd node aiout
 mp3     aout     inb     node    node    pmos    l ='lmin'    w ='2*lmin'
 mp4     aout     ina     node    node    pmos    l ='lmin'    w ='2*lmin'
 mn5     aout     ina     mid     mid     nmos    l ='lmin'    w ='2*lmin'
 mn6     mid      inb     gnd     gnd     nmos    l ='lmin'    w ='2*lmin'

 mp1  aiout      aout    node    node    pmos       l ='lmin'  w ='2*lmin'
 mn2 aiout       aout        gnd     gnd     nmos        l ='lmin'  w ='1*lmin'
 .ends myand

 ************************ decoder *********************************

 x1 2 0 1  4 myinverter
 x2 4 0 1  5 myinverter
 * y1 node 6 *
 x3 5 3 0  1  6 myand
 * y2 node 7 *
 x4 4 3 0  1  7 myand


 *********type of analysis***
 .tran  0.025ns  20ns

 .measure tran tphl
  + trig v(3) val = '0.5 * vdd'  rise = 1  targ v(7)  val = '0.5 * vdd' rise = 1

 .measure tran tplh
 + trig v(3) val = '0.5 * vdd' fall = 1 targ v(7) val = '0.5 * vdd'  fall = 1

 .measure tran tpd  param = '0.5 * (tphl + tplh)'

 .measure tran avgpower avg power
 .measure tran pdp param = 'tpd * avgpower'
 .op
 .end

 ***********************************************************************
 ** runlvl is invoked, you can disable it by:
      a) Add option runlvl=0 to your current simulation job.
      b) Copy $installdir/hspice.ini to your HOME directory and
         customize it by adding option runlvl=0, which disables
         it for all of your simulation jobs.
      c) Re-invoke $installdir/bin/config program and unselect the
         option runlvl setting in box 'hspice.ini' which disables
         it for whole group simulation jobs.

 ** runlvl is invoked, some options are ignored or automatically set:
      Options below are automatically set(user setting will overwrite them):
      if runlvl=6,            .option bypass=0
      if runlvl=[1|2|3|4|5],  .option bypass=2

      Options below are ignored, they are replaced by automated algorithms:
        lvltim    dvdt      ft    fast   trtol  absvar  relvar
          relq  chgtol    dvtr    imin    itl3    rmax

 ** runlvl is invoked, actual option value used by HSPICE are:
       runlvl= 3       bypass= 2      mbypass=   2.00   bytol= 100.00u
 ***********************************************************************

1****** HSPICE -- A-2008.03 32-BIT (Feb 26 2008) winnt ******                   
 ******  
 * 2-to-1 decoder - cmos logic *                                                
  ******  circuit name directory                                                
 ******  
 circuit number to circuit name directory
   number circuitname                     definition         multiplier
        0 main circuit
        1 x1.                             myinverter         1.00 
        2 x2.                             myinverter         1.00 
        3 x3.                             myand              1.00 
        4 x4.                             myand              1.00 
 ** warning** associated with encrypted blocks were suppressed

 
      
  Opening plot unit= 79
 file=\\mac\home\desktop\malikeh\ut-courses\digital_elec\ca3\zahremar.pa0      

1****** HSPICE -- A-2008.03 32-BIT (Feb 26 2008) winnt ******                   
 ******  
 * 2-to-1 decoder - cmos logic *                                                
  ******  operating point information      tnom=  25.000 temp=  25.000          
 ******  
 ***** operating point status is all       simulation time is     0.     
    node    =voltage      node    =voltage      node    =voltage

 +0:1       =   1.0000  0:2       =   1.0000  0:3       =   1.0000 
 +0:4       =   3.6673u 0:5       = 999.9960m 0:6       = 999.9964m
 +0:7       =   2.2468u 3:aout    =   5.0405u 3:mid     =   2.5605u
 +4:aout    = 999.9918m 4:mid     =   4.2404u


 ****  voltage sources

 subckt                                   
 element  0:vdd      0:vinx     0:vina    
  volts      1.0000     1.0000     1.0000 
  current   -4.9414n  -72.1561p -120.1536p
  power      4.9414n   72.1561p  120.1536p

     total voltage source power dissipation=    5.1337n       watts




 **** mosfets


 subckt   x1         x1         x2         x2         x3         x3        
 element  1:mp1      1:mn2      2:mp1      2:mn2      3:mp3      3:mp4     
 model    0:pmos     0:nmos     0:pmos     0:nmos     0:pmos     0:pmos    
 region       Cutoff     Linear     Linear     Cutoff     Cutoff     Cutoff
  id      -344.5604p  668.7006p -856.8822p  701.8691p -344.5579p -344.5967p
  ibs     -9.472e-25  5.271e-24 -4.516e-24  9.472e-25 -9.472e-25 -9.472e-25
  ibd        1.0100p   -5.0946a    5.6039a   -1.0100p    1.0100p    1.0100p
  vgs        0.         1.0000  -999.9963m    3.6673u    0.        -4.0339u
  vds     -999.9963m    3.6673u   -4.0339u  999.9960m -999.9950m -999.9950m
  vbs        0.         0.         0.         0.         0.         0.     
  vth     -335.9463m  466.7817m -487.5964m  339.7751m -335.9465m -335.9465m
  vdsat    -44.4970m  327.0675m -383.1135m   39.1436m  -44.4970m  -44.4970m
  vod      335.9463m  533.2183m -512.3999m -339.7714m  335.9465m  335.9424m
  beta     912.8688u    1.0028m  680.0552u    1.8693m  912.8685u  912.8685u
  gam eff  400.0000m  400.0000m  400.0000m  400.0000m  400.0000m  400.0000m
  gm         9.6145n  299.5960p  843.2899p   18.6833n    9.6144n    9.6155n
  gds        1.8232n  182.3409u  212.4202u    2.6293n    1.8232n    1.8234n
  gmb        2.2843n  139.0445p  288.5532p    4.7469n    2.2842n    2.2845n
  cdtot     56.8788a   60.1246a  127.3564a   27.1512a   56.8789a   56.8789a
  cgtot     62.9149a   53.2236a  120.3046a   27.8833a   62.9149a   62.9150a
  cstot    104.3868a   54.5952a  115.8719a   50.1904a  104.3868a  104.3870a
  cbtot    116.9332a   62.4129a  125.1126a   58.1837a  116.9332a  116.9331a
  cgs       32.5312a   29.5143a   68.2769a   14.2626a   32.5312a   32.5313a
  cgd       21.0927a   23.3522a   51.5031a    9.2581a   21.0927a   21.0927a



 subckt   x3         x3         x3         x3         x4         x4        
 element  3:mn5      3:mn6      3:mp1      3:mn2      4:mp3      4:mp4     
 model    0:nmos     0:nmos     0:pmos     0:nmos     0:pmos     0:pmos    
 region       Linear     Linear     Linear     Cutoff     Cutoff     Linear
  id       946.7029p  977.4195p -767.4762p  701.8959p -807.8610a   -1.7505n
  ibs      1.205e-23  1.205e-23 -4.516e-24  9.472e-25    0.      -4.516e-24
  ibd       -3.4453a   -3.5570a    5.0192a   -1.0100p   11.4477a   11.4477a
  vgs      999.9934m    1.0000  -999.9950m    5.0405u    0.      -999.9963m
  vds        2.4800u    2.5605u   -3.6130u  999.9964m   -8.2407u   -8.2407u
  vbs        0.         0.         0.         0.         0.         0.     
  vth      466.7819m  466.7819m -487.5965m  339.7750m -487.5958m -487.5958m
  vdsat    336.2101m  336.2136m -383.1127m   39.1436m  -45.1986m -383.1138m
  vod      533.2115m  533.2181m -512.3984m -339.7700m  487.5958m -512.4005m
  beta       2.2922m    2.2922m  680.0556u    1.8693m  714.7639u  680.0555u
  gam eff  400.0000m  400.0000m  400.0000m  400.0000m  400.0000m  400.0000m
  gm       391.1865p  403.8691p  755.3049p   18.6840n   22.7958f    1.7227n
  gds      381.7304u  381.7314u  212.4201u    2.6294n   98.0267p  212.4185u
  gmb      180.8338p  186.6984p  258.4466p    4.7470n    5.9627f  589.4746p
  cdtot    131.0120a  131.0121a  127.3565a   27.1512a   77.4403a  127.3555a
  cgtot    121.0778a  121.0778a  120.3046a   27.8833a   74.3524a  120.3045a
  cstot    114.5238a  114.5238a  115.8719a   50.1905a  104.3867a  115.8725a
  cbtot    125.4013a  125.4013a  125.1126a   58.1837a  126.0569a  125.1125a
  cgs       67.4611a   67.4611a   68.2768a   14.2627a   32.5310a   68.2772a
  cgd       53.3765a   53.3766a   51.5031a    9.2581a   32.5304a   51.5027a



 subckt   x4         x4         x4         x4        
 element  4:mn5      4:mn6      4:mp1      4:mn2     
 model    0:nmos     0:nmos     0:pmos     0:nmos    
 region       Cutoff     Linear     Cutoff     Linear
  id         1.6056n    1.6187n -344.6422p  409.6822p
  ibs      9.475e-25  1.205e-23 -9.472e-25  5.270e-24
  ibd       -1.0100p   -5.8908a    1.0100p   -3.1213a
  vgs     -573.1485n    1.0000    -8.2407u  999.9918m
  vds      999.9875m    4.2404u -999.9978m    2.2468u
  vbs        0.         0.         0.         0.     
  vth      339.7761m  466.7817m -335.9460m  466.7819m
  vdsat     39.3010m  336.2137m  -44.4970m  327.0632m
  vod     -339.7767m  533.2183m  335.9378m  533.2098m
  beta       4.2726m    2.2922m  912.8692u    1.0028m
  gam eff  400.0000m  400.0000m  400.0000m  400.0000m
  gm        42.7385n  668.8558p    9.6167n  183.5531p
  gds        6.0148n  381.7300u    1.8236n  182.3408u
  gmb       10.8592n  309.1936p    2.2848n   85.1875p
  cdtot     56.9477a  131.0118a   56.8788a   60.1246a
  cgtot     63.1572a  121.0778a   62.9151a   53.2235a
  cstot    104.4557a  114.5240a  104.3871a   54.5952a
  cbtot    117.0379a  125.4013a  116.9331a   62.4130a
  cgs       32.6002a   67.4613a   32.5314a   29.5142a
  cgd       21.1615a   53.3764a   21.0927a   23.3522a



 ******  
 * 2-to-1 decoder - cmos logic *                                                
  ******  transient analysis               tnom=  25.000 temp=  25.000          
 ******  
   tphl= failed                          trig= not found
   tplh= failed                          trig= not found
   tpd= failed                         measure parameter failed
   avgpower=  5.1337E-09  from=  0.0000E+00     to=  2.0000E-08
   pdp= failed                         measure parameter failed

          ***** job concluded
1****** HSPICE -- A-2008.03 32-BIT (Feb 26 2008) winnt ******                   
 ******  
 * 2-to-1 decoder - cmos logic *                                                
  ******  job statistics summary           tnom=  25.000 temp=  25.000          
 ******  

           total memory used        204 kbytes

  # nodes =      76 # elements=      19
  # diodes=       0 # bjts    =       0 # jfets   =       0 # mosfets =      16
  # va device =       0

    analysis           time    # points   tot. iter  conv.iter

    op point           0.02           1          20
    transient          0.08         801          50          25 rev=         0
    readin             0.02
    errchk             0.01
    setup              0.01
    output             0.00
           total cpu time          0.15 seconds
           total elapsed time         1 seconds
               job started at  14:03:21 11/24/2018
               job ended   at  14:03:21 11/24/2018


 Init: hspice initialization file: C:\synopsys\Hspice_A-2008.03\hspice.ini
